# modpoll ready. baud=9600. commands: sweep / read a f s c / baud N / fc N / marker
# marker t=8879ms first modbus sweep
# sweep addr 1..32 fcs ['0x3', '0x4', '0x1', '0x2'] baud 9600
HIT  addr=1 fc=0x03 -> 01 03 00 00 00 08 44 0C [CRC OK]
HIT  addr=1 fc=0x04 -> 01 04 00 00 00 08 F1 CC [CRC OK]
HIT  addr=1 fc=0x01 -> 01 01 00 00 00 08 3D CC [CRC OK]
HIT  addr=1 fc=0x02 -> 01 02 00 00 00 08 79 CC [CRC OK]
HIT  addr=2 fc=0x03 -> 02 03 00 00 00 08 44 3F [CRC OK]
HIT  addr=2 fc=0x04 -> 02 04 00 00 00 08 F1 FF [CRC OK]
HIT  addr=2 fc=0x01 -> 02 01 00 00 00 08 3D FF [CRC OK]
HIT  addr=2 fc=0x02 -> 02 02 00 00 00 08 79 FF [CRC OK]
HIT  addr=3 fc=0x03 -> 03 03 00 00 00 08 45 EE [CRC OK]
HIT  addr=3 fc=0x04 -> 03 04 00 00 00 08 F0 2E [CRC OK]
HIT  addr=3 fc=0x01 -> 03 01 00 00 00 08 3C 2E [CRC OK]
HIT  addr=3 fc=0x02 -> 03 02 00 00 00 08 78 2E [CRC OK]
HIT  addr=4 fc=0x03 -> 04 03 00 00 00 08 44 59 [CRC OK]
HIT  addr=4 fc=0x04 -> 04 04 00 00 00 08 F1 99 [CRC OK]
HIT  addr=4 fc=0x01 -> 04 01 00 00 00 08 3D 99 [CRC OK]
HIT  addr=4 fc=0x02 -> 04 02 00 00 00 08 79 99 [CRC OK]
HIT  addr=5 fc=0x03 -> 05 03 00 00 00 08 45 88 [CRC OK]
HIT  addr=5 fc=0x04 -> 05 04 00 00 00 08 F0 48 [CRC OK]
HIT  addr=5 fc=0x01 -> 05 01 00 00 00 08 3C 48 [CRC OK]
HIT  addr=5 fc=0x02 -> 05 02 00 00 00 08 78 48 [CRC OK]
HIT  addr=6 fc=0x03 -> 06 03 00 00 00 08 45 BB [CRC OK]
HIT  addr=6 fc=0x04 -> 06 04 00 00 00 08 F0 7B [CRC OK]
HIT  addr=6 fc=0x01 -> 06 01 00 00 00 08 3C 7B [CRC OK]
HIT  addr=6 fc=0x02 -> 06 02 00 00 00 08 78 7B [CRC OK]
HIT  addr=7 fc=0x03 -> 07 03 00 00 00 08 44 6A [CRC OK]
HIT  addr=7 fc=0x04 -> 07 04 00 00 00 08 F1 AA [CRC OK]
HIT  addr=7 fc=0x01 -> 07 01 00 00 00 08 3D AA [CRC OK]
HIT  addr=7 fc=0x02 -> 07 02 00 00 00 08 79 AA [CRC OK]
HIT  addr=8 fc=0x03 -> 08 03 00 00 00 08 44 95 [CRC OK]
HIT  addr=8 fc=0x04 -> 08 04 00 00 00 08 F1 55 [CRC OK]
HIT  addr=8 fc=0x01 -> 08 01 00 00 00 08 3D 55 [CRC OK]
HIT  addr=8 fc=0x02 -> 08 02 00 00 00 08 79 55 [CRC OK]
HIT  addr=9 fc=0x03 -> 09 03 00 00 00 08 45 44 [CRC OK]
HIT  addr=9 fc=0x04 -> 09 04 00 00 00 08 F0 84 [CRC OK]
HIT  addr=9 fc=0x01 -> 09 01 00 00 00 08 3C 84 [CRC OK]
HIT  addr=9 fc=0x02 -> 09 02 00 00 00 08 78 84 [CRC OK]
HIT  addr=10 fc=0x03 -> 0A 03 00 00 00 08 45 77 [CRC OK]
HIT  addr=10 fc=0x04 -> 0A 04 00 00 00 08 F0 B7 [CRC OK]
HIT  addr=10 fc=0x01 -> 0A 01 00 00 00 08 3C B7 [CRC OK]
HIT  addr=10 fc=0x02 -> 0A 02 00 00 00 08 78 B7 [CRC OK]
HIT  addr=11 fc=0x03 -> 0B 03 00 00 00 08 44 A6 [CRC OK]
HIT  addr=11 fc=0x04 -> 0B 04 00 00 00 08 F1 66 [CRC OK]
HIT  addr=11 fc=0x01 -> 0B 01 00 00 00 08 3D 66 [CRC OK]
HIT  addr=11 fc=0x02 -> 0B 02 00 00 00 08 79 66 [CRC OK]
HIT  addr=12 fc=0x03 -> 0C 03 00 00 00 08 45 11 [CRC OK]
HIT  addr=12 fc=0x04 -> 0C 04 00 00 00 08 F0 D1 [CRC OK]
HIT  addr=12 fc=0x01 -> 0C 01 00 00 00 08 3C D1 [CRC OK]
HIT  addr=12 fc=0x02 -> 0C 02 00 00 00 08 78 D1 [CRC OK]
HIT  addr=13 fc=0x03 -> 0D 03 00 00 00 08 44 C0 [CRC OK]
HIT  addr=13 fc=0x04 -> 0D 04 00 00 00 08 F1 00 [CRC OK]
HIT  addr=13 fc=0x01 -> 0D 01 00 00 00 08 3D 00 [CRC OK]
HIT  addr=13 fc=0x02 -> 0D 02 00 00 00 08 79 00 [CRC OK]
HIT  addr=14 fc=0x03 -> 0E 03 00 00 00 08 44 F3 [CRC OK]
HIT  addr=14 fc=0x04 -> 0E 04 00 00 00 08 F1 33 [CRC OK]
HIT  addr=14 fc=0x01 -> 0E 01 00 00 00 08 3D 33 [CRC OK]
HIT  addr=14 fc=0x02 -> 0E 02 00 00 00 08 79 33 [CRC OK]
HIT  addr=15 fc=0x03 -> 0F 03 00 00 00 08 45 22 [CRC OK]
HIT  addr=15 fc=0x04 -> 0F 04 00 00 00 08 F0 E2 [CRC OK]
HIT  addr=15 fc=0x01 -> 0F 01 00 00 00 08 3C E2 [CRC OK]
HIT  addr=15 fc=0x02 -> 0F 02 00 00 00 08 78 E2 [CRC OK]
HIT  addr=16 fc=0x03 -> 10 03 00 00 00 08 47 4D [CRC OK]
HIT  addr=16 fc=0x04 -> 10 04 00 00 00 08 F2 8D [CRC OK]
HIT  addr=16 fc=0x01 -> 10 01 00 00 00 08 3E 8D [CRC OK]
HIT  addr=16 fc=0x02 -> 10 02 00 00 00 08 7A 8D [CRC OK]
HIT  addr=17 fc=0x03 -> 11 03 00 00 00 08 46 9C [CRC OK]
HIT  addr=17 fc=0x04 -> 11 04 00 00 00 08 F3 5C [CRC OK]
HIT  addr=17 fc=0x01 -> 11 01 00 00 00 08 3F 5C [CRC OK]
HIT  addr=17 fc=0x02 -> 11 02 00 00 00 08 7B 5C [CRC OK]
HIT  addr=18 fc=0x03 -> 12 03 00 00 00 08 46 AF [CRC OK]
HIT  addr=18 fc=0x04 -> 12 04 00 00 00 08 F3 6F [CRC OK]
HIT  addr=18 fc=0x01 -> 12 01 00 00 00 08 3F 6F [CRC OK]
HIT  addr=18 fc=0x02 -> 12 02 00 00 00 08 7B 6F [CRC OK]
HIT  addr=19 fc=0x03 -> 13 03 00 00 00 08 47 7E [CRC OK]
HIT  addr=19 fc=0x04 -> 13 04 00 00 00 08 F2 BE [CRC OK]
HIT  addr=19 fc=0x01 -> 13 01 00 00 00 08 3E BE [CRC OK]
HIT  addr=19 fc=0x02 -> 13 02 00 00 00 08 7A BE [CRC OK]
HIT  addr=20 fc=0x03 -> 14 03 00 00 00 08 46 C9 [CRC OK]
HIT  addr=20 fc=0x04 -> 14 04 00 00 00 08 F3 09 [CRC OK]
HIT  addr=20 fc=0x01 -> 14 01 00 00 00 08 3F 09 [CRC OK]
HIT  addr=20 fc=0x02 -> 14 02 00 00 00 08 7B 09 [CRC OK]
HIT  addr=21 fc=0x03 -> 15 03 00 00 00 08 47 18 [CRC OK]
HIT  addr=21 fc=0x04 -> 15 04 00 00 00 08 F2 D8 [CRC OK]
HIT  addr=21 fc=0x01 -> 15 01 00 00 00 08 3E D8 [CRC OK]
HIT  addr=21 fc=0x02 -> 15 02 00 00 00 08 7A D8 [CRC OK]
HIT  addr=22 fc=0x03 -> 16 03 00 00 00 08 47 2B [CRC OK]
HIT  addr=22 fc=0x04 -> 16 04 00 00 00 08 F2 EB [CRC OK]
HIT  addr=22 fc=0x01 -> 16 01 00 00 00 08 3E EB [CRC OK]
HIT  addr=22 fc=0x02 -> 16 02 00 00 00 08 7A EB [CRC OK]
HIT  addr=23 fc=0x03 -> 17 03 00 00 00 08 46 FA [CRC OK]
HIT  addr=23 fc=0x04 -> 17 04 00 00 00 08 F3 3A [CRC OK]
HIT  addr=23 fc=0x01 -> 17 01 00 00 00 08 3F 3A [CRC OK]
HIT  addr=23 fc=0x02 -> 17 02 00 00 00 08 7B 3A [CRC OK]
HIT  addr=24 fc=0x03 -> 18 03 00 00 00 08 46 05 [CRC OK]
HIT  addr=24 fc=0x04 -> 18 04 00 00 00 08 F3 C5 [CRC OK]
HIT  addr=24 fc=0x01 -> 18 01 00 00 00 08 3F C5 [CRC OK]
HIT  addr=24 fc=0x02 -> 18 02 00 00 00 08 7B C5 [CRC OK]
HIT  addr=25 fc=0x03 -> 19 03 00 00 00 08 47 D4 [CRC OK]
HIT  addr=25 fc=0x04 -> 19 04 00 00 00 08 F2 14 [CRC OK]
HIT  addr=25 fc=0x01 -> 19 01 00 00 00 08 3E 14 [CRC OK]
HIT  addr=25 fc=0x02 -> 19 02 00 00 00 08 7A 14 [CRC OK]
HIT  addr=26 fc=0x03 -> 1A 03 00 00 00 08 47 E7 [CRC OK]
HIT  addr=26 fc=0x04 -> 1A 04 00 00 00 08 F2 27 [CRC OK]
HIT  addr=26 fc=0x01 -> 1A 01 00 00 00 08 3E 27 [CRC OK]
HIT  addr=26 fc=0x02 -> 1A 02 00 00 00 08 7A 27 [CRC OK]
HIT  addr=27 fc=0x03 -> 1B 03 00 00 00 08 46 36 [CRC OK]
HIT  addr=27 fc=0x04 -> 1B 04 00 00 00 08 F3 F6 [CRC OK]
HIT  addr=27 fc=0x01 -> 1B 01 00 00 00 08 3F F6 [CRC OK]
HIT  addr=27 fc=0x02 -> 1B 02 00 00 00 08 7B F6 [CRC OK]
HIT  addr=28 fc=0x03 -> 1C 03 00 00 00 08 47 81 [CRC OK]
HIT  addr=28 fc=0x04 -> 1C 04 00 00 00 08 F2 41 [CRC OK]
HIT  addr=28 fc=0x01 -> 1C 01 00 00 00 08 3E 41 [CRC OK]
HIT  addr=28 fc=0x02 -> 1C 02 00 00 00 08 7A 41 [CRC OK]
HIT  addr=29 fc=0x03 -> 1D 03 00 00 00 08 46 50 [CRC OK]
HIT  addr=29 fc=0x04 -> 1D 04 00 00 00 08 F3 90 [CRC OK]
HIT  addr=29 fc=0x01 -> 1D 01 00 00 00 08 3F 90 [CRC OK]
HIT  addr=29 fc=0x02 -> 1D 02 00 00 00 08 7B 90 [CRC OK]
HIT  addr=30 fc=0x03 -> 1E 03 00 00 00 08 46 63 [CRC OK]
HIT  addr=30 fc=0x04 -> 1E 04 00 00 00 08 F3 A3 [CRC OK]
HIT  addr=30 fc=0x01 -> 1E 01 00 00 00 08 3F A3 [CRC OK]
HIT  addr=30 fc=0x02 -> 1E 02 00 00 00 08 7B A3 [CRC OK]
HIT  addr=31 fc=0x03 -> 1F 03 00 00 00 08 47 B2 [CRC OK]
HIT  addr=31 fc=0x04 -> 1F 04 00 00 00 08 F2 72 [CRC OK]
HIT  addr=31 fc=0x01 -> 1F 01 00 00 00 08 3E 72 [CRC OK]
HIT  addr=31 fc=0x02 -> 1F 02 00 00 00 08 7A 72 [CRC OK]
HIT  addr=32 fc=0x03 -> 20 03 00 00 00 08 42 BD [CRC OK]
HIT  addr=32 fc=0x04 -> 20 04 00 00 00 08 F7 7D [CRC OK]
HIT  addr=32 fc=0x01 -> 20 01 00 00 00 08 3B 7D [CRC OK]
HIT  addr=32 fc=0x02 -> 20 02 00 00 00 08 7F 7D [CRC OK]
# sweep done, 128 valid replies
